
T0C24 002:560 SEGGER J-Link V4.40c Log File (0001ms, 2558ms total)
T0C24 002:560 DLL Compiled: Jan 24 2012 09:30:33 (0001ms, 2558ms total)
T0C24 002:560 Logging started @ 2015-01-02 10:38 (0001ms, 2558ms total)
T0C24 002:561 JLINK_SetWarnOutHandler(...) (0000ms, 2559ms total)
T0C24 002:561 JLINK_OpenEx(...)
Firmware: J-Link ARM V7 compiled Jun 30 2009 11:05:27
Hardware: V7.00
S/N: 19087980
Feature(s): RDI, FlashDL, FlashBP, JFlash, GDBFull  returns O.K. (1170ms, 2559ms total)
T0C24 003:731 JLINK_SetErrorOutHandler(...) (0000ms, 3729ms total)
T0C24 003:732 JLINK_ExecCommand("Device = STM32F103VE", ...)
                JLINK_ExecCommand("map ram 0x20000000 - 0x2000FFFF", ...)  returns 0x00 (0000ms, 0000ms total)
                JLINK_AddMirrorAreaEx(Addr = 0x00000000, Size = 0x00000000) (0000ms, 0000ms total)
              Device "STM32F103VE" selected (512 KB flash, 64 KB RAM).  returns 0x00 (0002ms, 3729ms total)
T0C24 003:735 JLINK_ExecCommand("ProjectFile = "F:\Archive_folder\FATFS+SD+TFTÏÔÊ¾×Ö·û+½ØÍ¼+Êý×ÖÏà²áBMPÏÔÊ¾+ÉãÏñÍ·ÏÔÊ¾½ØÆÁÍêÃÀ°æ+ÉãÏñÍ·´æ´¢320 240\³ÌÐò\USER\JLinkSettings.ini"", ...)  returns 0x00 (0001ms, 3731ms total)
T0C24 003:738 JLINK_ExecCommand("DisableConnectionTimeout", ...)  returns 0x00 (0000ms, 3732ms total)
T0C24 003:743 JLINK_TIF_Select(JLINKARM_TIF_JTAG)  returns 0x00 (0000ms, 3732ms total)
T0C24 003:743 JLINK_SetSpeed(2000) (0001ms, 3732ms total)
T0C24 003:744 JLINK_GetHardwareVersion()  returns 0x11170 (0000ms, 3733ms total)
T0C24 003:744 JLINK_GetDLLVersion()  returns 44003 (0000ms, 3733ms total)
T0C24 003:744 JLINK_GetFirmwareString(...) (0000ms, 3733ms total)
T0C24 003:745 JLINK_GetDLLVersion()  returns 44003 (0000ms, 3733ms total)
T0C24 003:745 JLINK_GetCompileDateTime() (0000ms, 3733ms total)
T0C24 003:752 JLINK_GetFirmwareString(...) (0000ms, 3733ms total)
T0C24 003:756 JLINK_GetHardwareVersion()  returns 0x11170 (0000ms, 3733ms total)
T0C24 003:762 JLINK_GetIdData(...) >0x2F8 JTAG>TotalIRLen = 9, IRPrint = 0x0011 >0x30 JTAG> >0x210 JTAG> >0x80 JTAG> >0x40 JTAG> >0x40 JTAG> >0x50 JTAG> >0x40 JTAG> >0x40 JTAG> >0x40 JTAG> >0x50 JTAG> >0x40 JTAG> >0x50 JTAG> >0x40 JTAG> >0x40 JTAG> >0x40 JTAG> >0x30 JTAG> >0x40 JTAG> >0x50 JTAG> >0x40 JTAG> >0x38 JTAG> >0x80 JTAG> >0x40 JTAG> >0x40 JTAG> >0x50 JTAG> >0x40 JTAG> >0x40 JTAG> >0x40 JTAG> >0x50 JTAG> >0x40 JTAG> >0x40 JTAG> >0x30 JTAG> >0x40 JTAG> >0x40 JTAG> >0x40 JTAG> >0x40 JTAG>
 >0x40 JTAG> >0x50 JTAG> >0x40 JTAG> >0x80 JTAG> >0x40 JTAG> >0x30 JTAG> >0x40 JTAG> >0x40 JTAG> >0x40 JTAG> >0x40 JTAG> >0x40 JTAG> >0x50 JTAG> >0x40 JTAG> >0x80 JTAG> >0x40 JTAG> >0x30 JTAG> >0x40 JTAG> >0x50 JTAG> >0x40 JTAG> >0x40 JTAG> >0x40 JTAG> >0x30 JTAG> >0x40 JTAG> >0x50 JTAG> >0x40 JTAG>Found Cortex-M3 r1p1, Little endian. >0x50 JTAG> >0x50 JTAG> >0x40 JTAG> >0x40 JTAG> >0x30 JTAG> >0x30 JTAG> >0x50 JTAG> >0x40 JTAG> >0x80 JTAG> >0x40 JTAG> >0x30 JTAG> >0x40 JTAG> >0x50 JTAG> >0x40 JTAG>
 >0x40 JTAG> >0x40 JTAG> >0x30 JTAG> >0x30 JTAG> >0x50 JTAG> >0x40 JTAG> >0x80 JTAG> >0x40 JTAG> >0x30 JTAG> >0x40 JTAG> >0x50 JTAG> >0x40 JTAG>TPIU fitted. >0x40 JTAG> >0x40 JTAG> >0x30 JTAG> >0x40 JTAG> >0x50 JTAG> >0x40 JTAG>ETM fitted. >0x40 JTAG> >0x40 JTAG> >0x30 JTAG> >0x40 JTAG> >0x50 JTAG> >0x40 JTAG> >0x40 JTAG> >0x40 JTAG> >0x30 JTAG> >0x40 JTAG> >0x50 JTAG> >0x40 JTAG>  FPUnit: 6 code (BP) slots and 2 literal slots >0x40 JTAG> >0x40 JTAG> >0x30 JTAG> >0x40 JTAG> >0x50 JTAG> >0x40 JTAG>
 >0x40 JTAG> >0x40 JTAG> >0x30 JTAG> >0x30 JTAG> >0x50 JTAG> >0x40 JTAG> >0x80 JTAG> >0x40 JTAG> >0x30 JTAG> >0x40 JTAG> >0x50 JTAG> >0x40 JTAG> ScanLen=9 NumDevices=2 aId[0]=0x3BA00477 aIrRead[0]=0 aScanLen[0]=0 aScanRead[0]=0 (0270ms, 3733ms total)
T0C24 004:032 JLINK_JTAG_GetDeviceID(DeviceIndex = 0)  returns 0x3BA00477 (0000ms, 4003ms total)
T0C24 004:032 JLINK_JTAG_GetDeviceInfo(DeviceIndex = 0)  returns 0x00 (0000ms, 4003ms total)
T0C24 004:032 JLINK_JTAG_GetDeviceID(DeviceIndex = 1)  returns 0x6414041 (0000ms, 4003ms total)
T0C24 004:032 JLINK_JTAG_GetDeviceInfo(DeviceIndex = 1)  returns 0x00 (0000ms, 4003ms total)
T0C24 004:032 JLINK_GetDebugInfo(0x100) -- Value=0xE00FF003  returns 0x00 (0001ms, 4003ms total)
T0C24 004:039 JLINK_ReadMem (0xE00FFFF0, 0x0010 Bytes, ...) -- CPU is running >0x2B0 JTAG> -- Data:  0D 00 00 00 10 00 00 00 05 00 00 00 B1 00 00 00  returns 0x00 (0002ms, 4004ms total)
T0C24 004:041 JLINK_ReadMem (0xE00FFFD0, 0x0020 Bytes, ...) -- CPU is running >0x398 JTAG> -- Data:  00 00 00 00 00 00 00 00 00 00 00 00 00 00 00 00 ...  returns 0x00 (0003ms, 4006ms total)
T0C24 004:044 JLINK_ReadMem (0xE00FF000, 0x0018 Bytes, ...) -- CPU is running >0x320 JTAG> -- Data:  03 F0 F0 FF 03 20 F0 FF 03 30 F0 FF 03 10 F0 FF ...  returns 0x00 (0003ms, 4009ms total)
T0C24 004:047 JLINK_ReadMemU32(0xE000ED00, 0x0001 Items, ...) -- CPU is running >0x1F0 JTAG> -- Data:  31 C2 1F 41  returns 0x01 (0003ms, 4012ms total)
T0C24 004:050 JLINK_SetResetType(JLINKARM_RESET_TYPE_NORMAL)  returns JLINKARM_RESET_TYPE_NORMAL (0000ms, 4015ms total)
T0C24 004:050 JLINK_Reset() >0x2F8 JTAG>TotalIRLen = 9, IRPrint = 0x0011 >0x30 JTAG> >0x210 JTAG> >0x80 JTAG> >0x40 JTAG> >0x40 JTAG> >0x50 JTAG> >0x40 JTAG> >0x40 JTAG> >0x40 JTAG> >0x50 JTAG> >0x40 JTAG> >0x50 JTAG> >0x40 JTAG> >0x40 JTAG> >0x40 JTAG> >0x30 JTAG> >0x40 JTAG> >0x50 JTAG> >0x40 JTAG> >0x38 JTAG> >0x80 JTAG> >0x40 JTAG> >0x40 JTAG> >0x50 JTAG> >0x40 JTAG> >0x40 JTAG> >0x40 JTAG> >0x50 JTAG> >0x40 JTAG> >0x40 JTAG> >0x30 JTAG> >0x40 JTAG> >0x40 JTAG> >0x40 JTAG> >0x40 JTAG> >0x40 JTAG>
 >0x50 JTAG> >0x40 JTAG> >0x80 JTAG> >0x40 JTAG> >0x30 JTAG> >0x40 JTAG> >0x40 JTAG> >0x40 JTAG> >0x40 JTAG> >0x40 JTAG> >0x50 JTAG> >0x40 JTAG> >0x80 JTAG> >0x40 JTAG> >0x30 JTAG> >0x40 JTAG> >0x50 JTAG> >0x40 JTAG> >0x40 JTAG> >0x40 JTAG> >0x30 JTAG> >0x40 JTAG> >0x50 JTAG> >0x40 JTAG>Found Cortex-M3 r1p1, Little endian. >0x50 JTAG> >0x50 JTAG> >0x40 JTAG> >0x40 JTAG> >0x30 JTAG> >0x30 JTAG> >0x50 JTAG> >0x40 JTAG> >0x80 JTAG> >0x40 JTAG> >0x30 JTAG> >0x40 JTAG> >0x50 JTAG> >0x40 JTAG> >0x40 JTAG>
 >0x40 JTAG> >0x30 JTAG> >0x40 JTAG> >0x50 JTAG> >0x40 JTAG>TPIU fitted. >0x40 JTAG> >0x40 JTAG> >0x30 JTAG> >0x40 JTAG> >0x50 JTAG> >0x40 JTAG>ETM fitted. >0x40 JTAG> >0x40 JTAG> >0x30 JTAG> >0x40 JTAG> >0x50 JTAG> >0x40 JTAG> >0x40 JTAG> >0x40 JTAG> >0x30 JTAG> >0x40 JTAG> >0x50 JTAG> >0x40 JTAG>  FPUnit: 6 code (BP) slots and 2 literal slots >0x40 JTAG> >0x40 JTAG> >0x30 JTAG> >0x40 JTAG> >0x50 JTAG> >0x40 JTAG> >0x40 JTAG> >0x40 JTAG> >0x30 JTAG> >0x40 JTAG> >0x50 JTAG> >0x40 JTAG> >0x48 JTAG>
 >0x80 JTAG> >0x40 JTAG> >0x40 JTAG> >0x50 JTAG> >0x40 JTAG> >0x40 JTAG> >0x40 JTAG> >0x50 JTAG> >0x40 JTAG> >0x40 JTAG> >0x30 JTAG> >0x40 JTAG> >0x40 JTAG> >0x40 JTAG> >0x40 JTAG> >0x40 JTAG> >0x50 JTAG> >0x40 JTAG> >0x80 JTAG> >0x40 JTAG> >0x30 JTAG> >0x40 JTAG> >0x40 JTAG> >0x40 JTAG> >0x40 JTAG> >0x40 JTAG> >0x50 JTAG> >0x40 JTAG> >0x80 JTAG> >0x40 JTAG> >0x30 JTAG> >0x40 JTAG> >0x50 JTAG> >0x40 JTAG> >0x40 JTAG> >0x40 JTAG> >0x30 JTAG> >0x40 JTAG> >0x50 JTAG> >0x40 JTAG>
Found Cortex-M3 r1p1, Little endian. >0x50 JTAG> >0x50 JTAG> >0x40 JTAG> >0x40 JTAG> >0x30 JTAG> >0x30 JTAG> >0x50 JTAG> >0x40 JTAG> >0x80 JTAG> >0x40 JTAG> >0x30 JTAG> >0x40 JTAG> >0x50 JTAG> >0x40 JTAG> >0x40 JTAG> >0x40 JTAG> >0x30 JTAG> >0x40 JTAG> >0x50 JTAG> >0x40 JTAG>TPIU fitted. >0x40 JTAG> >0x40 JTAG> >0x30 JTAG> >0x40 JTAG> >0x50 JTAG> >0x40 JTAG>ETM fitted. >0x40 JTAG> >0x40 JTAG> >0x30 JTAG> >0x40 JTAG> >0x50 JTAG> >0x40 JTAG> >0x40 JTAG> >0x40 JTAG> >0x30 JTAG> >0x40 JTAG> >0x50 JTAG>
 >0x40 JTAG>  FPUnit: 6 code (BP) slots and 2 literal slots >0x40 JTAG> >0x40 JTAG> >0x30 JTAG> >0x40 JTAG> >0x50 JTAG> >0x40 JTAG> >0x40 JTAG> >0x40 JTAG> >0x30 JTAG> >0x40 JTAG> >0x50 JTAG> >0x40 JTAG> -- CPU is running >0x200 JTAG> -- CPU is running >0x1F0 JTAG> -- CPU is running >0x230 JTAG> -- CPU is running >0x1F0 JTAG> -- CPU is running >0x1F0 JTAG> -- CPU is running >0x1F0 JTAG> -- CPU is running >0x1F0 JTAG> -- CPU is running >0x1F0 JTAG> >0x198 JTAG> >0x17A8 JTAG> >0x40 JTAG> >0x40 JTAG>
 >0x30 JTAG> >0x40 JTAG> >0x50 JTAG> >0x40 JTAG> >0x1F0 JTAG> >0x1F0 JTAG> >0x1F0 JTAG> >0x1F0 JTAG> >0x1F0 JTAG> (0510ms, 4015ms total)
T0C24 004:560 JLINK_Halt()  returns 0x00 (0000ms, 4525ms total)
T0C24 004:560 JLINK_IsHalted()  returns TRUE (0000ms, 4525ms total)
T0C24 004:560 JLINK_ReadMemU32(0xE000EDF0, 0x0001 Items, ...) >0x1F0 JTAG> -- Data:  03 00 03 00  returns 0x01 (0003ms, 4525ms total)
T0C24 004:563 JLINK_WriteU32(0xE000EDF0, 0xA05F0003) >0x1F0 JTAG>  returns 0x00 (0002ms, 4528ms total)
T0C24 004:565 JLINK_WriteU32(0xE000EDFC, 0x01000000) >0x1F0 JTAG>  returns 0x00 (0002ms, 4530ms total)
T0C24 004:579 JLINK_GetHWStatus(...)  returns 0x00 (0002ms, 4532ms total)
T0C24 004:591 JLINK_GetNumBPUnits(Type = 0xFFFFFF00)  returns 0x06 (0000ms, 4534ms total)
T0C24 004:591 JLINK_GetNumBPUnits(Type = 0xF0)  returns 0x2000 (0000ms, 4534ms total)
T0C24 004:591 JLINK_GetNumWPUnits()  returns 0x04 (0000ms, 4534ms total)
T0C24 004:603 JLINK_GetSpeed()  returns 0x7D0 (0000ms, 4534ms total)
T0C24 004:610 JLINK_ReadMemU32(0xE000E004, 0x0001 Items, ...) >0x1F0 JTAG> -- Data:  01 00 00 00  returns 0x01 (0003ms, 4534ms total)
T0C24 004:613 JLINK_ReadMemU32(0xE000E004, 0x0001 Items, ...) >0x1F0 JTAG> -- Data:  01 00 00 00  returns 0x01 (0003ms, 4537ms total)
T0C24 004:616 JLINK_WriteMem(0xE0001000, 0x001C Bytes, ...) -- Data:  01 00 00 00 00 00 00 00 00 00 00 00 00 00 00 00 ... >0x310 JTAG>  returns 0x1C (0003ms, 4540ms total)
T0C24 004:619 JLINK_ReadMem (0xE0001000, 0x001C Bytes, ...) >0x358 JTAG> -- Data:  01 00 00 40 00 00 00 00 00 00 00 00 00 00 00 00 ...  returns 0x00 (0003ms, 4543ms total)
T0C24 004:622 JLINK_Halt()  returns 0x00 (0000ms, 4546ms total)
T0C24 004:622 JLINK_IsHalted()  returns TRUE (0000ms, 4546ms total)
T0C24 004:624 JLINK_WriteMem(0x20000000, 0x0164 Bytes, ...) -- Data:  00 BE 0A E0 0D 78 2D 06 68 40 08 24 40 00 00 D3 ... >0x1270 JTAG>  returns 0x164 (0006ms, 4546ms total)
T0C24 004:630 JLINK_WriteReg(R0, 0x08000000)  returns 0x00 (0000ms, 4552ms total)
T0C24 004:630 JLINK_WriteReg(R1, 0x007A1200)  returns 0x00 (0000ms, 4552ms total)
T0C24 004:630 JLINK_WriteReg(R2, 0x00000001)  returns 0x00 (0000ms, 4552ms total)
T0C24 004:630 JLINK_WriteReg(R3, 0x00000000)  returns 0x00 (0000ms, 4552ms total)
T0C24 004:630 JLINK_WriteReg(R4, 0x00000000)  returns 0x00 (0000ms, 4552ms total)
T0C24 004:630 JLINK_WriteReg(R5, 0x00000000)  returns 0x00 (0000ms, 4552ms total)
T0C24 004:630 JLINK_WriteReg(R6, 0x00000000)  returns 0x00 (0000ms, 4552ms total)
T0C24 004:630 JLINK_WriteReg(R7, 0x00000000)  returns 0x00 (0000ms, 4552ms total)
T0C24 004:630 JLINK_WriteReg(R8, 0x00000000)  returns 0x00 (0000ms, 4552ms total)
T0C24 004:630 JLINK_WriteReg(R9, 0x20000160)  returns 0x00 (0000ms, 4552ms total)
T0C24 004:630 JLINK_WriteReg(R10, 0x00000000)  returns 0x00 (0000ms, 4552ms total)
T0C24 004:630 JLINK_WriteReg(R11, 0x00000000)  returns 0x00 (0000ms, 4552ms total)
T0C24 004:630 JLINK_WriteReg(R12, 0x00000000)  returns 0x00 (0000ms, 4552ms total)
T0C24 004:630 JLINK_WriteReg(R13, 0x20000800)  returns 0x00 (0000ms, 4552ms total)
T0C24 004:630 JLINK_WriteReg(R14, 0x20000001)  returns 0x00 (0000ms, 4552ms total)
T0C24 004:630 JLINK_WriteReg(R15, 0x20000038)  returns 0x00 (0000ms, 4552ms total)
T0C24 004:630 JLINK_WriteReg(XPSR, 0x01000000)  returns 0x00 (0000ms, 4552ms total)
T0C24 004:630 JLINK_WriteReg(MSP, 0x20000800)  returns 0x00 (0000ms, 4552ms total)
T0C24 004:630 JLINK_WriteReg(PSP, 0x20000800)  returns 0x00 (0001ms, 4552ms total)
T0C24 004:631 JLINK_WriteReg(CFBP, 0x00000000)  returns 0x00 (0000ms, 4553ms total)
T0C24 004:631 JLINK_SetBPEx(Addr = 0x20000000, Type = 0xFFFFFFF2) >0x1F0 JTAG>  returns 0x00000001 (0002ms, 4553ms total)
T0C24 004:633 JLINK_Go() >0x1F0 JTAG> >0x1F0 JTAG> >0x1F0 JTAG> >0x1F0 JTAG> >0x1F0 JTAG> >0x1F0 JTAG> >0x1F0 JTAG> >0x310 JTAG> >0x218 JTAG> >0x218 JTAG> >0x218 JTAG> >0x218 JTAG> >0x218 JTAG> >0x218 JTAG> >0x218 JTAG> >0x218 JTAG> >0x218 JTAG> >0x218 JTAG> >0x218 JTAG> >0x218 JTAG> >0x218 JTAG> >0x218 JTAG> >0x218 JTAG> >0x218 JTAG> >0x240 JTAG> >0x240 JTAG> (0053ms, 4555ms total)
T0C24 004:686 JLINK_IsHalted() >0x198 JTAG> >0x17A8 JTAG> >0x1F0 JTAG>  returns TRUE (0011ms, 4608ms total)
T0C24 004:697 JLINK_ReadReg(R15)  returns 0x20000000 (0001ms, 4608ms total)
T0C24 004:698 JLINK_ClrBPEx(BPHandle = 0x00000001)  returns 0x00 (0000ms, 4609ms total)
T0C24 004:698 JLINK_ReadReg(R0)  returns 0x00000000 (0000ms, 4609ms total)
T0C24 004:698 JLINK_WriteReg(R0, 0x08000000)  returns 0x00 (0000ms, 4609ms total)
T0C24 004:698 JLINK_WriteReg(R1, 0x007A1200)  returns 0x00 (0000ms, 4609ms total)
T0C24 004:698 JLINK_WriteReg(R2, 0x00000001)  returns 0x00 (0000ms, 4609ms total)
T0C24 004:698 JLINK_WriteReg(R3, 0x00000000)  returns 0x00 (0000ms, 4609ms total)
T0C24 004:698 JLINK_WriteReg(R4, 0x00000000)  returns 0x00 (0001ms, 4609ms total)
T0C24 004:699 JLINK_WriteReg(R5, 0x00000000)  returns 0x00 (0000ms, 4610ms total)
T0C24 004:699 JLINK_WriteReg(R6, 0x00000000)  returns 0x00 (0000ms, 4610ms total)
T0C24 004:699 JLINK_WriteReg(R7, 0x00000000)  returns 0x00 (0000ms, 4610ms total)
T0C24 004:699 JLINK_WriteReg(R8, 0x00000000)  returns 0x00 (0000ms, 4610ms total)
T0C24 004:699 JLINK_WriteReg(R9, 0x20000160)  returns 0x00 (0000ms, 4610ms total)
T0C24 004:699 JLINK_WriteReg(R10, 0x00000000)  returns 0x00 (0000ms, 4610ms total)
T0C24 004:699 JLINK_WriteReg(R11, 0x00000000)  returns 0x00 (0000ms, 4610ms total)
T0C24 004:699 JLINK_WriteReg(R12, 0x00000000)  returns 0x00 (0000ms, 4610ms total)
T0C24 004:699 JLINK_WriteReg(R13, 0x20000800)  returns 0x00 (0000ms, 4610ms total)
T0C24 004:699 JLINK_WriteReg(R14, 0x20000001)  returns 0x00 (0000ms, 4610ms total)
T0C24 004:699 JLINK_WriteReg(R15, 0x2000007C)  returns 0x00 (0000ms, 4610ms total)
T0C24 004:699 JLINK_WriteReg(XPSR, 0x01000000)  returns 0x00 (0000ms, 4610ms total)
T0C24 004:699 JLINK_WriteReg(MSP, 0x20000800)  returns 0x00 (0000ms, 4610ms total)
T0C24 004:699 JLINK_WriteReg(PSP, 0x20000800)  returns 0x00 (0000ms, 4610ms total)
T0C24 004:699 JLINK_WriteReg(CFBP, 0x00000000)  returns 0x00 (0000ms, 4610ms total)
T0C24 004:699 JLINK_SetBPEx(Addr = 0x20000000, Type = 0xFFFFFFF2)  returns 0x00000002 (0000ms, 4610ms total)
T0C24 004:699 JLINK_Go() >0x1F0 JTAG> >0x1F0 JTAG> >0x1F0 JTAG> >0x1F0 JTAG> >0x1F0 JTAG> >0x1F0 JTAG> >0x310 JTAG> >0x218 JTAG> >0x218 JTAG> >0x218 JTAG> >0x240 JTAG> >0x240 JTAG> (0027ms, 4610ms total)
T0C24 004:726 JLINK_IsHalted() >0x198 JTAG>  returns FALSE (0002ms, 4637ms total)
T0C24 004:778 JLINK_IsHalted() >0x198 JTAG> >0x17A8 JTAG> >0x1F0 JTAG>  returns TRUE (0011ms, 4637ms total)
T0C24 004:789 JLINK_ReadReg(R15)  returns 0x20000000 (0000ms, 4637ms total)
T0C24 004:789 JLINK_ClrBPEx(BPHandle = 0x00000002)  returns 0x00 (0000ms, 4637ms total)
T0C24 004:789 JLINK_ReadReg(R0)  returns 0x00000000 (0000ms, 4637ms total)
T0C24 004:841 JLINK_WriteReg(R0, 0x00000001)  returns 0x00 (0000ms, 4637ms total)
T0C24 004:841 JLINK_WriteReg(R1, 0x007A1200)  returns 0x00 (0000ms, 4637ms total)
T0C24 004:841 JLINK_WriteReg(R2, 0x00000001)  returns 0x00 (0000ms, 4637ms total)
T0C24 004:841 JLINK_WriteReg(R3, 0x00000000)  returns 0x00 (0000ms, 4637ms total)
T0C24 004:841 JLINK_WriteReg(R4, 0x00000000)  returns 0x00 (0000ms, 4637ms total)
T0C24 004:841 JLINK_WriteReg(R5, 0x00000000)  returns 0x00 (0000ms, 4637ms total)
T0C24 004:841 JLINK_WriteReg(R6, 0x00000000)  returns 0x00 (0000ms, 4637ms total)
T0C24 004:841 JLINK_WriteReg(R7, 0x00000000)  returns 0x00 (0000ms, 4637ms total)
T0C24 004:841 JLINK_WriteReg(R8, 0x00000000)  returns 0x00 (0000ms, 4637ms total)
T0C24 004:841 JLINK_WriteReg(R9, 0x20000160)  returns 0x00 (0000ms, 4637ms total)
T0C24 004:841 JLINK_WriteReg(R10, 0x00000000)  returns 0x00 (0000ms, 4637ms total)
T0C24 004:841 JLINK_WriteReg(R11, 0x00000000)  returns 0x00 (0000ms, 4637ms total)
T0C24 004:841 JLINK_WriteReg(R12, 0x00000000)  returns 0x00 (0000ms, 4637ms total)
T0C24 004:841 JLINK_WriteReg(R13, 0x20000800)  returns 0x00 (0000ms, 4637ms total)
T0C24 004:841 JLINK_WriteReg(R14, 0x20000001)  returns 0x00 (0000ms, 4637ms total)
T0C24 004:841 JLINK_WriteReg(R15, 0x2000006A)  returns 0x00 (0000ms, 4637ms total)
T0C24 004:841 JLINK_WriteReg(XPSR, 0x01000000)  returns 0x00 (0000ms, 4637ms total)
T0C24 004:841 JLINK_WriteReg(MSP, 0x20000800)  returns 0x00 (0000ms, 4637ms total)
T0C24 004:841 JLINK_WriteReg(PSP, 0x20000800)  returns 0x00 (0000ms, 4637ms total)
T0C24 004:841 JLINK_WriteReg(CFBP, 0x00000000)  returns 0x00 (0000ms, 4637ms total)
T0C24 004:841 JLINK_SetBPEx(Addr = 0x20000000, Type = 0xFFFFFFF2)  returns 0x00000003 (0000ms, 4637ms total)
T0C24 004:841 JLINK_Go() >0x1F0 JTAG> >0x1F0 JTAG> >0x1F0 JTAG> >0x1F0 JTAG> >0x1F0 JTAG> >0x1F0 JTAG> >0x310 JTAG> >0x218 JTAG> >0x218 JTAG> >0x218 JTAG> >0x240 JTAG> >0x240 JTAG> (0028ms, 4637ms total)
T0C24 004:869 JLINK_IsHalted() >0x198 JTAG> >0x17A8 JTAG> >0x1F0 JTAG>  returns TRUE (0011ms, 4665ms total)
T0C24 004:880 JLINK_ReadReg(R15)  returns 0x20000000 (0000ms, 4665ms total)
T0C24 004:880 JLINK_ClrBPEx(BPHandle = 0x00000003)  returns 0x00 (0000ms, 4665ms total)
T0C24 004:880 JLINK_ReadReg(R0)  returns 0x00000000 (0000ms, 4665ms total)
T0C24 004:887 JLINK_WriteMem(0x20000000, 0x0164 Bytes, ...) -- Data:  00 BE 0A E0 0D 78 2D 06 68 40 08 24 40 00 00 D3 ... >0x1270 JTAG>  returns 0x164 (0007ms, 4665ms total)
T0C24 004:894 JLINK_WriteReg(R0, 0x08000000)  returns 0x00 (0000ms, 4672ms total)
T0C24 004:894 JLINK_WriteReg(R1, 0x007A1200)  returns 0x00 (0000ms, 4672ms total)
T0C24 004:894 JLINK_WriteReg(R2, 0x00000002)  returns 0x00 (0000ms, 4672ms total)
T0C24 004:894 JLINK_WriteReg(R3, 0x00000000)  returns 0x00 (0000ms, 4672ms total)
T0C24 004:894 JLINK_WriteReg(R4, 0x00000000)  returns 0x00 (0000ms, 4672ms total)
T0C24 004:894 JLINK_WriteReg(R5, 0x00000000)  returns 0x00 (0000ms, 4672ms total)
T0C24 004:894 JLINK_WriteReg(R6, 0x00000000)  returns 0x00 (0000ms, 4672ms total)
T0C24 004:894 JLINK_WriteReg(R7, 0x00000000)  returns 0x00 (0000ms, 4672ms total)
T0C24 004:894 JLINK_WriteReg(R8, 0x00000000)  returns 0x00 (0000ms, 4672ms total)
T0C24 004:894 JLINK_WriteReg(R9, 0x20000160)  returns 0x00 (0000ms, 4672ms total)
T0C24 004:894 JLINK_WriteReg(R10, 0x00000000)  returns 0x00 (0000ms, 4672ms total)
T0C24 004:894 JLINK_WriteReg(R11, 0x00000000)  returns 0x00 (0000ms, 4672ms total)
T0C24 004:894 JLINK_WriteReg(R12, 0x00000000)  returns 0x00 (0000ms, 4672ms total)
T0C24 004:894 JLINK_WriteReg(R13, 0x20000800)  returns 0x00 (0000ms, 4672ms total)
T0C24 004:894 JLINK_WriteReg(R14, 0x20000001)  returns 0x00 (0000ms, 4672ms total)
T0C24 004:894 JLINK_WriteReg(R15, 0x20000038)  returns 0x00 (0000ms, 4672ms total)
T0C24 004:894 JLINK_WriteReg(XPSR, 0x01000000)  returns 0x00 (0000ms, 4672ms total)
T0C24 004:894 JLINK_WriteReg(MSP, 0x20000800)  returns 0x00 (0000ms, 4672ms total)
T0C24 004:894 JLINK_WriteReg(PSP, 0x20000800)  returns 0x00 (0000ms, 4672ms total)
T0C24 004:894 JLINK_WriteReg(CFBP, 0x00000000)  returns 0x00 (0000ms, 4672ms total)
T0C24 004:894 JLINK_SetBPEx(Addr = 0x20000000, Type = 0xFFFFFFF2) >0x1F0 JTAG>  returns 0x00000004 (0003ms, 4672ms total)
T0C24 004:897 JLINK_Go() >0x1F0 JTAG> >0x1F0 JTAG> >0x1F0 JTAG> >0x1F0 JTAG> >0x1F0 JTAG> >0x1F0 JTAG> >0x1F0 JTAG> >0x310 JTAG> >0x218 JTAG> >0x218 JTAG> >0x218 JTAG> >0x218 JTAG> >0x240 JTAG> >0x240 JTAG> (0030ms, 4675ms total)
T0C24 004:927 JLINK_IsHalted() >0x198 JTAG> >0x17A8 JTAG> >0x1F0 JTAG>  returns TRUE (0011ms, 4705ms total)
T0C24 004:938 JLINK_ReadReg(R15)  returns 0x20000000 (0000ms, 4705ms total)
T0C24 004:938 JLINK_ClrBPEx(BPHandle = 0x00000004)  returns 0x00 (0000ms, 4705ms total)
T0C24 004:938 JLINK_ReadReg(R0)  returns 0x00000000 (0000ms, 4705ms total)
T0C24 004:938 JLINK_WriteMem(0x20000164, 0x0400 Bytes, ...) -- Data:  F0 EE 00 20 45 01 00 08 8D 24 00 08 8F 24 00 08 ... >0x31C0 JTAG>  returns 0x400 (0013ms, 4705ms total)
T0C24 004:951 JLINK_WriteReg(R0, 0x08000000)  returns 0x00 (0000ms, 4718ms total)
T0C24 004:951 JLINK_WriteReg(R1, 0x00000400)  returns 0x00 (0000ms, 4718ms total)
T0C24 004:951 JLINK_WriteReg(R2, 0x20000164)  returns 0x00 (0000ms, 4718ms total)
T0C24 004:951 JLINK_WriteReg(R3, 0x00000000)  returns 0x00 (0000ms, 4718ms total)
T0C24 004:951 JLINK_WriteReg(R4, 0x00000000)  returns 0x00 (0000ms, 4718ms total)
T0C24 004:951 JLINK_WriteReg(R5, 0x00000000)  returns 0x00 (0000ms, 4718ms total)
T0C24 004:951 JLINK_WriteReg(R6, 0x00000000)  returns 0x00 (0000ms, 4718ms total)
T0C24 004:951 JLINK_WriteReg(R7, 0x00000000)  returns 0x00 (0000ms, 4718ms total)
T0C24 004:951 JLINK_WriteReg(R8, 0x00000000)  returns 0x00 (0000ms, 4718ms total)
T0C24 004:951 JLINK_WriteReg(R9, 0x20000160)  returns 0x00 (0000ms, 4718ms total)
T0C24 004:951 JLINK_WriteReg(R10, 0x00000000)  returns 0x00 (0000ms, 4718ms total)
T0C24 004:951 JLINK_WriteReg(R11, 0x00000000)  returns 0x00 (0000ms, 4718ms total)
T0C24 004:951 JLINK_WriteReg(R12, 0x00000000)  returns 0x00 (0000ms, 4718ms total)
T0C24 004:951 JLINK_WriteReg(R13, 0x20000800)  returns 0x00 (0000ms, 4718ms total)
T0C24 004:951 JLINK_WriteReg(R14, 0x20000001)  returns 0x00 (0000ms, 4718ms total)
T0C24 004:951 JLINK_WriteReg(R15, 0x200000F4)  returns 0x00 (0000ms, 4718ms total)
T0C24 004:951 JLINK_WriteReg(XPSR, 0x01000000)  returns 0x00 (0000ms, 4718ms total)
T0C24 004:951 JLINK_WriteReg(MSP, 0x20000800)  returns 0x00 (0000ms, 4718ms total)
T0C24 004:951 JLINK_WriteReg(PSP, 0x20000800)  returns 0x00 (0000ms, 4718ms total)
T0C24 004:951 JLINK_WriteReg(CFBP, 0x00000000)  returns 0x00 (0000ms, 4718ms total)
T0C24 004:951 JLINK_SetBPEx(Addr = 0x20000000, Type = 0xFFFFFFF2)  returns 0x00000005 (0000ms, 4718ms total)
T0C24 004:951 JLINK_Go() >0x1F0 JTAG> >0x1F0 JTAG> >0x1F0 JTAG> >0x1F0 JTAG> >0x1F0 JTAG> >0x1F0 JTAG> >0x310 JTAG> >0x218 JTAG> >0x218 JTAG> >0x218 JTAG> >0x218 JTAG> >0x218 JTAG> >0x240 JTAG> >0x240 JTAG> (0035ms, 4718ms total)
T0C24 004:986 JLINK_IsHalted() >0x198 JTAG>  returns FALSE (0002ms, 4753ms total)
T0C24 005:038 JLINK_IsHalted() >0x198 JTAG> >0x17A8 JTAG> >0x1F0 JTAG>  returns TRUE (0012ms, 4753ms total)
T0C24 005:050 JLINK_ReadReg(R15)  returns 0x20000000 (0000ms, 4753ms total)
T0C24 005:050 JLINK_ClrBPEx(BPHandle = 0x00000005)  returns 0x00 (0000ms, 4753ms total)
T0C24 005:050 JLINK_ReadReg(R0)  returns 0x00000000 (0000ms, 4753ms total)
T0C24 005:051 JLINK_WriteMem(0x20000164, 0x0400 Bytes, ...) -- Data:  B7 FE 00 21 4F F4 04 70 FF F7 B2 FE EF 21 40 F2 ... >0x31C0 JTAG>  returns 0x400 (0012ms, 4753ms total)
T0C24 005:063 JLINK_WriteReg(R0, 0x08000400)  returns 0x00 (0000ms, 4765ms total)
T0C24 005:064 JLINK_WriteReg(R1, 0x00000400)  returns 0x00 (0000ms, 4765ms total)
T0C24 005:064 JLINK_WriteReg(R2, 0x20000164)  returns 0x00 (0000ms, 4765ms total)
T0C24 005:064 JLINK_WriteReg(R3, 0x00000000)  returns 0x00 (0000ms, 4765ms total)
T0C24 005:064 JLINK_WriteReg(R4, 0x00000000)  returns 0x00 (0000ms, 4765ms total)
T0C24 005:064 JLINK_WriteReg(R5, 0x00000000)  returns 0x00 (0000ms, 4765ms total)
T0C24 005:064 JLINK_WriteReg(R6, 0x00000000)  returns 0x00 (0000ms, 4765ms total)
T0C24 005:064 JLINK_WriteReg(R7, 0x00000000)  returns 0x00 (0000ms, 4765ms total)
T0C24 005:064 JLINK_WriteReg(R8, 0x00000000)  returns 0x00 (0000ms, 4765ms total)
T0C24 005:064 JLINK_WriteReg(R9, 0x20000160)  returns 0x00 (0000ms, 4765ms total)
T0C24 005:064 JLINK_WriteReg(R10, 0x00000000)  returns 0x00 (0000ms, 4765ms total)
T0C24 005:064 JLINK_WriteReg(R11, 0x00000000)  returns 0x00 (0000ms, 4765ms total)
T0C24 005:064 JLINK_WriteReg(R12, 0x00000000)  returns 0x00 (0000ms, 4765ms total)
T0C24 005:064 JLINK_WriteReg(R13, 0x20000800)  returns 0x00 (0000ms, 4765ms total)
T0C24 005:064 JLINK_WriteReg(R14, 0x20000001)  returns 0x00 (0000ms, 4765ms total)
T0C24 005:064 JLINK_WriteReg(R15, 0x200000F4)  returns 0x00 (0000ms, 4765ms total)
T0C24 005:064 JLINK_WriteReg(XPSR, 0x01000000)  returns 0x00 (0000ms, 4765ms total)
T0C24 005:064 JLINK_WriteReg(MSP, 0x20000800)  returns 0x00 (0000ms, 4765ms total)
T0C24 005:064 JLINK_WriteReg(PSP, 0x20000800)  returns 0x00 (0000ms, 4765ms total)
T0C24 005:064 JLINK_WriteReg(CFBP, 0x00000000)  returns 0x00 (0000ms, 4765ms total)
T0C24 005:064 JLINK_SetBPEx(Addr = 0x20000000, Type = 0xFFFFFFF2)  returns 0x00000006 (0000ms, 4765ms total)
T0C24 005:064 JLINK_Go() >0x1F0 JTAG> >0x1F0 JTAG> >0x1F0 JTAG> >0x1F0 JTAG> >0x1F0 JTAG> >0x1F0 JTAG> >0x310 JTAG> >0x218 JTAG> >0x218 JTAG> >0x218 JTAG> >0x218 JTAG> >0x218 JTAG> >0x240 JTAG> >0x240 JTAG> (0031ms, 4765ms total)
T0C24 005:095 JLINK_IsHalted() >0x198 JTAG>  returns FALSE (0002ms, 4796ms total)
T0C24 005:147 JLINK_IsHalted() >0x198 JTAG> >0x17A8 JTAG> >0x1F0 JTAG>  returns TRUE (0011ms, 4796ms total)
T0C24 005:158 JLINK_ReadReg(R15)  returns 0x20000000 (0000ms, 4796ms total)
T0C24 005:158 JLINK_ClrBPEx(BPHandle = 0x00000006)  returns 0x00 (0000ms, 4796ms total)
T0C24 005:158 JLINK_ReadReg(R0)  returns 0x00000000 (0000ms, 4796ms total)
T0C24 005:159 JLINK_WriteMem(0x20000164, 0x0400 Bytes, ...) -- Data:  31 20 8D F8 00 00 00 27 8D F8 01 70 01 26 8D F8 ... >0x31C0 JTAG>  returns 0x400 (0012ms, 4796ms total)
T0C24 005:171 JLINK_WriteReg(R0, 0x08000800)  returns 0x00 (0000ms, 4808ms total)
T0C24 005:171 JLINK_WriteReg(R1, 0x00000400)  returns 0x00 (0000ms, 4808ms total)
T0C24 005:171 JLINK_WriteReg(R2, 0x20000164)  returns 0x00 (0000ms, 4808ms total)
T0C24 005:171 JLINK_WriteReg(R3, 0x00000000)  returns 0x00 (0000ms, 4808ms total)
T0C24 005:171 JLINK_WriteReg(R4, 0x00000000)  returns 0x00 (0000ms, 4808ms total)
T0C24 005:171 JLINK_WriteReg(R5, 0x00000000)  returns 0x00 (0000ms, 4808ms total)
T0C24 005:172 JLINK_WriteReg(R6, 0x00000000)  returns 0x00 (0000ms, 4809ms total)
T0C24 005:172 JLINK_WriteReg(R7, 0x00000000)  returns 0x00 (0000ms, 4809ms total)
T0C24 005:172 JLINK_WriteReg(R8, 0x00000000)  returns 0x00 (0000ms, 4809ms total)
T0C24 005:172 JLINK_WriteReg(R9, 0x20000160)  returns 0x00 (0000ms, 4809ms total)
T0C24 005:172 JLINK_WriteReg(R10, 0x00000000)  returns 0x00 (0000ms, 4809ms total)
T0C24 005:172 JLINK_WriteReg(R11, 0x00000000)  returns 0x00 (0000ms, 4809ms total)
T0C24 005:172 JLINK_WriteReg(R12, 0x00000000)  returns 0x00 (0000ms, 4809ms total)
T0C24 005:172 JLINK_WriteReg(R13, 0x20000800)  returns 0x00 (0000ms, 4809ms total)
T0C24 005:172 JLINK_WriteReg(R14, 0x20000001)  returns 0x00 (0000ms, 4809ms total)
T0C24 005:172 JLINK_WriteReg(R15, 0x200000F4)  returns 0x00 (0000ms, 4809ms total)
T0C24 005:172 JLINK_WriteReg(XPSR, 0x01000000)  returns 0x00 (0000ms, 4809ms total)
T0C24 005:172 JLINK_WriteReg(MSP, 0x20000800)  returns 0x00 (0000ms, 4809ms total)
T0C24 005:172 JLINK_WriteReg(PSP, 0x20000800)  returns 0x00 (0000ms, 4809ms total)
T0C24 005:172 JLINK_WriteReg(CFBP, 0x00000000)  returns 0x00 (0000ms, 4809ms total)
T0C24 005:172 JLINK_SetBPEx(Addr = 0x20000000, Type = 0xFFFFFFF2)  returns 0x00000007 (0000ms, 4809ms total)
T0C24 005:172 JLINK_Go() >0x1F0 JTAG> >0x1F0 JTAG> >0x1F0 JTAG> >0x1F0 JTAG> >0x1F0 JTAG> >0x1F0 JTAG> >0x310 JTAG> >0x218 JTAG> >0x218 JTAG> >0x218 JTAG> >0x218 JTAG> >0x218 JTAG> >0x240 JTAG> >0x240 JTAG> (0029ms, 4809ms total)
T0C24 005:201 JLINK_IsHalted() >0x198 JTAG>  returns FALSE (0002ms, 4838ms total)
T0C24 005:253 JLINK_IsHalted() >0x198 JTAG> >0x17A8 JTAG> >0x1F0 JTAG>  returns TRUE (0011ms, 4838ms total)
T0C24 005:264 JLINK_ReadReg(R15)  returns 0x20000000 (0000ms, 4838ms total)
T0C24 005:264 JLINK_ClrBPEx(BPHandle = 0x00000007)  returns 0x00 (0000ms, 4838ms total)
T0C24 005:264 JLINK_ReadReg(R0)  returns 0x00000000 (0000ms, 4838ms total)
T0C24 005:265 JLINK_WriteMem(0x20000164, 0x0400 Bytes, ...) -- Data:  B4 F2 BF AA B3 C9 B9 A6 0A 00 00 00 B6 C1 C8 A1 ... >0x31C0 JTAG>  returns 0x400 (0012ms, 4838ms total)
T0C24 005:277 JLINK_WriteReg(R0, 0x08000C00)  returns 0x00 (0001ms, 4850ms total)
T0C24 005:278 JLINK_WriteReg(R1, 0x00000400)  returns 0x00 (0000ms, 4851ms total)
T0C24 005:278 JLINK_WriteReg(R2, 0x20000164)  returns 0x00 (0000ms, 4851ms total)
T0C24 005:278 JLINK_WriteReg(R3, 0x00000000)  returns 0x00 (0000ms, 4851ms total)
T0C24 005:278 JLINK_WriteReg(R4, 0x00000000)  returns 0x00 (0000ms, 4851ms total)
T0C24 005:278 JLINK_WriteReg(R5, 0x00000000)  returns 0x00 (0000ms, 4851ms total)
T0C24 005:278 JLINK_WriteReg(R6, 0x00000000)  returns 0x00 (0000ms, 4851ms total)
T0C24 005:278 JLINK_WriteReg(R7, 0x00000000)  returns 0x00 (0000ms, 4851ms total)
T0C24 005:278 JLINK_WriteReg(R8, 0x00000000)  returns 0x00 (0000ms, 4851ms total)
T0C24 005:278 JLINK_WriteReg(R9, 0x20000160)  returns 0x00 (0000ms, 4851ms total)
T0C24 005:278 JLINK_WriteReg(R10, 0x00000000)  returns 0x00 (0000ms, 4851ms total)
T0C24 005:278 JLINK_WriteReg(R11, 0x00000000)  returns 0x00 (0000ms, 4851ms total)
T0C24 005:278 JLINK_WriteReg(R12, 0x00000000)  returns 0x00 (0000ms, 4851ms total)
T0C24 005:278 JLINK_WriteReg(R13, 0x20000800)  returns 0x00 (0000ms, 4851ms total)
T0C24 005:278 JLINK_WriteReg(R14, 0x20000001)  returns 0x00 (0000ms, 4851ms total)
T0C24 005:278 JLINK_WriteReg(R15, 0x200000F4)  returns 0x00 (0000ms, 4851ms total)
T0C24 005:278 JLINK_WriteReg(XPSR, 0x01000000)  returns 0x00 (0000ms, 4851ms total)
T0C24 005:278 JLINK_WriteReg(MSP, 0x20000800)  returns 0x00 (0000ms, 4851ms total)
T0C24 005:278 JLINK_WriteReg(PSP, 0x20000800)  returns 0x00 (0000ms, 4851ms total)
T0C24 005:278 JLINK_WriteReg(CFBP, 0x00000000)  returns 0x00 (0000ms, 4851ms total)
T0C24 005:278 JLINK_SetBPEx(Addr = 0x20000000, Type = 0xFFFFFFF2)  returns 0x00000008 (0000ms, 4851ms total)
T0C24 005:278 JLINK_Go() >0x1F0 JTAG> >0x1F0 JTAG> >0x1F0 JTAG> >0x1F0 JTAG> >0x1F0 JTAG> >0x1F0 JTAG> >0x310 JTAG> >0x218 JTAG> >0x218 JTAG> >0x218 JTAG> >0x218 JTAG> >0x218 JTAG> >0x240 JTAG> >0x240 JTAG> (0030ms, 4851ms total)
T0C24 005:308 JLINK_IsHalted() >0x198 JTAG>  returns FALSE (0002ms, 4881ms total)
T0C24 005:360 JLINK_IsHalted() >0x198 JTAG> >0x17A8 JTAG> >0x1F0 JTAG>  returns TRUE (0011ms, 4881ms total)
T0C24 005:371 JLINK_ReadReg(R15)  returns 0x20000000 (0000ms, 4881ms total)
T0C24 005:371 JLINK_ClrBPEx(BPHandle = 0x00000008)  returns 0x00 (0000ms, 4881ms total)
T0C24 005:371 JLINK_ReadReg(R0)  returns 0x00000000 (0000ms, 4881ms total)
T0C24 005:372 JLINK_WriteMem(0x20000164, 0x0400 Bytes, ...) -- Data:  70 6B 10 F0 45 0F FB D0 40 F2 FF 5A C6 F8 38 A0 ... >0x31C0 JTAG>  returns 0x400 (0012ms, 4881ms total)
T0C24 005:384 JLINK_WriteReg(R0, 0x08001000)  returns 0x00 (0000ms, 4893ms total)
T0C24 005:384 JLINK_WriteReg(R1, 0x00000400)  returns 0x00 (0000ms, 4893ms total)
T0C24 005:385 JLINK_WriteReg(R2, 0x20000164)  returns 0x00 (0000ms, 4894ms total)
T0C24 005:385 JLINK_WriteReg(R3, 0x00000000)  returns 0x00 (0000ms, 4894ms total)
T0C24 005:385 JLINK_WriteReg(R4, 0x00000000)  returns 0x00 (0000ms, 4894ms total)
T0C24 005:385 JLINK_WriteReg(R5, 0x00000000)  returns 0x00 (0000ms, 4894ms total)
T0C24 005:385 JLINK_WriteReg(R6, 0x00000000)  returns 0x00 (0000ms, 4894ms total)
T0C24 005:385 JLINK_WriteReg(R7, 0x00000000)  returns 0x00 (0000ms, 4894ms total)
T0C24 005:385 JLINK_WriteReg(R8, 0x00000000)  returns 0x00 (0000ms, 4894ms total)
T0C24 005:385 JLINK_WriteReg(R9, 0x20000160)  returns 0x00 (0000ms, 4894ms total)
T0C24 005:385 JLINK_WriteReg(R10, 0x00000000)  returns 0x00 (0000ms, 4894ms total)
T0C24 005:385 JLINK_WriteReg(R11, 0x00000000)  returns 0x00 (0000ms, 4894ms total)
T0C24 005:385 JLINK_WriteReg(R12, 0x00000000)  returns 0x00 (0000ms, 4894ms total)
T0C24 005:385 JLINK_WriteReg(R13, 0x20000800)  returns 0x00 (0000ms, 4894ms total)
T0C24 005:385 JLINK_WriteReg(R14, 0x20000001)  returns 0x00 (0000ms, 4894ms total)
T0C24 005:385 JLINK_WriteReg(R15, 0x200000F4)  returns 0x00 (0000ms, 4894ms total)
T0C24 005:385 JLINK_WriteReg(XPSR, 0x01000000)  returns 0x00 (0000ms, 4894ms total)
T0C24 005:385 JLINK_WriteReg(MSP, 0x20000800)  returns 0x00 (0000ms, 4894ms total)
T0C24 005:385 JLINK_WriteReg(PSP, 0x20000800)  returns 0x00 (0000ms, 4894ms total)
T0C24 005:385 JLINK_WriteReg(CFBP, 0x00000000)  returns 0x00 (0000ms, 4894ms total)
T0C24 005:385 JLINK_SetBPEx(Addr = 0x20000000, Type = 0xFFFFFFF2)  returns 0x00000009 (0000ms, 4894ms total)
T0C24 005:385 JLINK_Go() >0x1F0 JTAG> >0x1F0 JTAG> >0x1F0 JTAG> >0x1F0 JTAG> >0x1F0 JTAG> >0x1F0 JTAG> >0x310 JTAG> >0x218 JTAG> >0x218 JTAG> >0x218 JTAG> >0x218 JTAG> >0x218 JTAG> >0x240 JTAG> >0x240 JTAG> (0032ms, 4894ms total)
T0C24 005:418 JLINK_IsHalted() >0x198 JTAG>  returns FALSE (0002ms, 4927ms total)
T0C24 005:470 JLINK_IsHalted() >0x198 JTAG> >0x17A8 JTAG> >0x1F0 JTAG>  returns TRUE (0011ms, 4927ms total)
T0C24 005:481 JLINK_ReadReg(R15)  returns 0x20000000 (0000ms, 4927ms total)
T0C24 005:481 JLINK_ClrBPEx(BPHandle = 0x00000009)  returns 0x00 (0001ms, 4927ms total)
T0C24 005:482 JLINK_ReadReg(R0)  returns 0x00000000 (0000ms, 4928ms total)
T0C24 005:482 JLINK_WriteMem(0x20000164, 0x0400 Bytes, ...) -- Data:  04 F0 0A F9 C9 F8 08 00 0C 20 04 F0 05 F9 C9 F8 ... >0x31C0 JTAG>  returns 0x400 (0012ms, 4928ms total)
T0C24 005:494 JLINK_WriteReg(R0, 0x08001400)  returns 0x00 (0000ms, 4940ms total)
T0C24 005:494 JLINK_WriteReg(R1, 0x00000400)  returns 0x00 (0000ms, 4940ms total)
T0C24 005:494 JLINK_WriteReg(R2, 0x20000164)  returns 0x00 (0000ms, 4940ms total)
T0C24 005:494 JLINK_WriteReg(R3, 0x00000000)  returns 0x00 (0000ms, 4940ms total)
T0C24 005:494 JLINK_WriteReg(R4, 0x00000000)  returns 0x00 (0000ms, 4940ms total)
T0C24 005:495 JLINK_WriteReg(R5, 0x00000000)  returns 0x00 (0000ms, 4940ms total)
T0C24 005:495 JLINK_WriteReg(R6, 0x00000000)  returns 0x00 (0000ms, 4940ms total)
T0C24 005:495 JLINK_WriteReg(R7, 0x00000000)  returns 0x00 (0000ms, 4940ms total)
T0C24 005:495 JLINK_WriteReg(R8, 0x00000000)  returns 0x00 (0000ms, 4940ms total)
T0C24 005:495 JLINK_WriteReg(R9, 0x20000160)  returns 0x00 (0000ms, 4940ms total)
T0C24 005:495 JLINK_WriteReg(R10, 0x00000000)  returns 0x00 (0000ms, 4940ms total)
T0C24 005:495 JLINK_WriteReg(R11, 0x00000000)  returns 0x00 (0000ms, 4940ms total)
T0C24 005:495 JLINK_WriteReg(R12, 0x00000000)  returns 0x00 (0000ms, 4940ms total)
T0C24 005:495 JLINK_WriteReg(R13, 0x20000800)  returns 0x00 (0000ms, 4940ms total)
T0C24 005:495 JLINK_WriteReg(R14, 0x20000001)  returns 0x00 (0000ms, 4940ms total)
T0C24 005:495 JLINK_WriteReg(R15, 0x200000F4)  returns 0x00 (0000ms, 4940ms total)
T0C24 005:495 JLINK_WriteReg(XPSR, 0x01000000)  returns 0x00 (0000ms, 4940ms total)
T0C24 005:495 JLINK_WriteReg(MSP, 0x20000800)  returns 0x00 (0000ms, 4940ms total)
T0C24 005:495 JLINK_WriteReg(PSP, 0x20000800)  returns 0x00 (0000ms, 4940ms total)
T0C24 005:495 JLINK_WriteReg(CFBP, 0x00000000)  returns 0x00 (0000ms, 4940ms total)
T0C24 005:495 JLINK_SetBPEx(Addr = 0x20000000, Type = 0xFFFFFFF2)  returns 0x0000000A (0000ms, 4940ms total)
T0C24 005:495 JLINK_Go() >0x1F0 JTAG> >0x1F0 JTAG> >0x1F0 JTAG> >0x1F0 JTAG> >0x1F0 JTAG> >0x1F0 JTAG> >0x310 JTAG> >0x218 JTAG> >0x218 JTAG> >0x218 JTAG> >0x218 JTAG> >0x218 JTAG> >0x240 JTAG> >0x240 JTAG> (0032ms, 4940ms total)
T0C24 005:527 JLINK_IsHalted() >0x198 JTAG>  returns FALSE (0002ms, 4972ms total)
T0C24 005:579 JLINK_IsHalted() >0x198 JTAG> >0x17A8 JTAG> >0x1F0 JTAG>  returns TRUE (0011ms, 4972ms total)
T0C24 005:590 JLINK_ReadReg(R15)  returns 0x20000000 (0000ms, 4972ms total)
T0C24 005:590 JLINK_ClrBPEx(BPHandle = 0x0000000A)  returns 0x00 (0000ms, 4972ms total)
T0C24 005:590 JLINK_ReadReg(R0)  returns 0x00000000 (0000ms, 4972ms total)
T0C24 005:591 JLINK_WriteMem(0x20000164, 0x0400 Bytes, ...) -- Data:  C3 48 C8 49 80 68 00 04 88 60 40 F2 4D 40 C8 60 ... >0x31C0 JTAG>  returns 0x400 (0013ms, 4972ms total)
T0C24 005:604 JLINK_WriteReg(R0, 0x08001800)  returns 0x00 (0000ms, 4985ms total)
T0C24 005:604 JLINK_WriteReg(R1, 0x00000400)  returns 0x00 (0000ms, 4985ms total)
T0C24 005:604 JLINK_WriteReg(R2, 0x20000164)  returns 0x00 (0000ms, 4985ms total)
T0C24 005:604 JLINK_WriteReg(R3, 0x00000000)  returns 0x00 (0000ms, 4985ms total)
T0C24 005:604 JLINK_WriteReg(R4, 0x00000000)  returns 0x00 (0000ms, 4985ms total)
T0C24 005:604 JLINK_WriteReg(R5, 0x00000000)  returns 0x00 (0000ms, 4985ms total)
T0C24 005:604 JLINK_WriteReg(R6, 0x00000000)  returns 0x00 (0000ms, 4985ms total)
T0C24 005:604 JLINK_WriteReg(R7, 0x00000000)  returns 0x00 (0000ms, 4985ms total)
T0C24 005:604 JLINK_WriteReg(R8, 0x00000000)  returns 0x00 (0000ms, 4985ms total)
T0C24 005:604 JLINK_WriteReg(R9, 0x20000160)  returns 0x00 (0000ms, 4985ms total)
T0C24 005:604 JLINK_WriteReg(R10, 0x00000000)  returns 0x00 (0000ms, 4985ms total)
T0C24 005:604 JLINK_WriteReg(R11, 0x00000000)  returns 0x00 (0000ms, 4985ms total)
T0C24 005:604 JLINK_WriteReg(R12, 0x00000000)  returns 0x00 (0000ms, 4985ms total)
T0C24 005:604 JLINK_WriteReg(R13, 0x20000800)  returns 0x00 (0000ms, 4985ms total)
T0C24 005:604 JLINK_WriteReg(R14, 0x20000001)  returns 0x00 (0000ms, 4985ms total)
T0C24 005:604 JLINK_WriteReg(R15, 0x200000F4)  returns 0x00 (0000ms, 4985ms total)
T0C24 005:604 JLINK_WriteReg(XPSR, 0x01000000)  returns 0x00 (0000ms, 4985ms total)
T0C24 005:604 JLINK_WriteReg(MSP, 0x20000800)  returns 0x00 (0000ms, 4985ms total)
T0C24 005:604 JLINK_WriteReg(PSP, 0x20000800)  returns 0x00 (0000ms, 4985ms total)
T0C24 005:604 JLINK_WriteReg(CFBP, 0x00000000)  returns 0x00 (0000ms, 4985ms total)
T0C24 005:604 JLINK_SetBPEx(Addr = 0x20000000, Type = 0xFFFFFFF2)  returns 0x0000000B (0000ms, 4985ms total)
T0C24 005:604 JLINK_Go() >0x1F0 JTAG> >0x1F0 JTAG> >0x1F0 JTAG> >0x1F0 JTAG> >0x1F0 JTAG> >0x1F0 JTAG> >0x310 JTAG> >0x218 JTAG> >0x218 JTAG> >0x218 JTAG> >0x218 JTAG> >0x218 JTAG> >0x240 JTAG> >0x240 JTAG> (0034ms, 4985ms total)
T0C24 005:638 JLINK_IsHalted() >0x198 JTAG>  returns FALSE (0002ms, 5019ms total)
T0C24 005:690 JLINK_IsHalted() >0x198 JTAG> >0x17A8 JTAG> >0x1F0 JTAG>  returns TRUE (0013ms, 5019ms total)
T0C24 005:703 JLINK_ReadReg(R15)  returns 0x20000000 (0000ms, 5019ms total)
T0C24 005:703 JLINK_ClrBPEx(BPHandle = 0x0000000B)  returns 0x00 (0000ms, 5019ms total)
T0C24 005:703 JLINK_ReadReg(R0)  returns 0x00000000 (0000ms, 5019ms total)
T0C24 005:703 JLINK_WriteMem(0x20000164, 0x0400 Bytes, ...) -- Data:  05 61 4F F0 01 0A C0 F8 0C A0 D4 4C E5 62 40 68 ... >0x31C0 JTAG>  returns 0x400 (0013ms, 5019ms total)
T0C24 005:716 JLINK_WriteReg(R0, 0x08001C00)  returns 0x00 (0000ms, 5032ms total)
T0C24 005:716 JLINK_WriteReg(R1, 0x00000400)  returns 0x00 (0000ms, 5032ms total)
T0C24 005:716 JLINK_WriteReg(R2, 0x20000164)  returns 0x00 (0000ms, 5032ms total)
T0C24 005:716 JLINK_WriteReg(R3, 0x00000000)  returns 0x00 (0000ms, 5032ms total)
T0C24 005:716 JLINK_WriteReg(R4, 0x00000000)  returns 0x00 (0000ms, 5032ms total)
T0C24 005:716 JLINK_WriteReg(R5, 0x00000000)  returns 0x00 (0000ms, 5032ms total)
T0C24 005:716 JLINK_WriteReg(R6, 0x00000000)  returns 0x00 (0000ms, 5032ms total)
T0C24 005:716 JLINK_WriteReg(R7, 0x00000000)  returns 0x00 (0000ms, 5032ms total)
T0C24 005:716 JLINK_WriteReg(R8, 0x00000000)  returns 0x00 (0000ms, 5032ms total)
T0C24 005:716 JLINK_WriteReg(R9, 0x20000160)  returns 0x00 (0000ms, 5032ms total)
T0C24 005:716 JLINK_WriteReg(R10, 0x00000000)  returns 0x00 (0000ms, 5032ms total)
T0C24 005:716 JLINK_WriteReg(R11, 0x00000000)  returns 0x00 (0000ms, 5032ms total)
T0C24 005:716 JLINK_WriteReg(R12, 0x00000000)  returns 0x00 (0000ms, 5032ms total)
T0C24 005:716 JLINK_WriteReg(R13, 0x20000800)  returns 0x00 (0000ms, 5032ms total)
T0C24 005:716 JLINK_WriteReg(R14, 0x20000001)  returns 0x00 (0000ms, 5032ms total)
T0C24 005:716 JLINK_WriteReg(R15, 0x200000F4)  returns 0x00 (0000ms, 5032ms total)
T0C24 005:716 JLINK_WriteReg(XPSR, 0x01000000)  returns 0x00 (0000ms, 5032ms total)
T0C24 005:716 JLINK_WriteReg(MSP, 0x20000800)  returns 0x00 (0000ms, 5032ms total)
T0C24 005:716 JLINK_WriteReg(PSP, 0x20000800)  returns 0x00 (0000ms, 5032ms total)
T0C24 005:716 JLINK_WriteReg(CFBP, 0x00000000)  returns 0x00 (0000ms, 5032ms total)
T0C24 005:716 JLINK_SetBPEx(Addr = 0x20000000, Type = 0xFFFFFFF2)  returns 0x0000000C (0000ms, 5032ms total)
T0C24 005:716 JLINK_Go() >0x1F0 JTAG> >0x1F0 JTAG> >0x1F0 JTAG> >0x1F0 JTAG> >0x1F0 JTAG> >0x1F0 JTAG> >0x310 JTAG> >0x218 JTAG> >0x218 JTAG> >0x218 JTAG> >0x218 JTAG> >0x218 JTAG> >0x240 JTAG> >0x240 JTAG> (0034ms, 5032ms total)
T0C24 005:751 JLINK_IsHalted() >0x198 JTAG>  returns FALSE (0002ms, 5066ms total)
T0C24 005:803 JLINK_IsHalted() >0x198 JTAG> >0x17A8 JTAG> >0x1F0 JTAG>  returns TRUE (0011ms, 5066ms total)
T0C24 005:814 JLINK_ReadReg(R15)  returns 0x20000000 (0000ms, 5066ms total)
T0C24 005:814 JLINK_ClrBPEx(BPHandle = 0x0000000C)  returns 0x00 (0001ms, 5066ms total)
T0C24 005:815 JLINK_ReadReg(R0)  returns 0x00000000 (0000ms, 5067ms total)
T0C24 005:815 JLINK_WriteMem(0x20000164, 0x0400 Bytes, ...) -- Data:  20 69 00 28 20 78 00 28 F5 D0 20 78 00 28 1C BF ... >0x31C0 JTAG>  returns 0x400 (0012ms, 5067ms total)
T0C24 005:827 JLINK_WriteReg(R0, 0x08002000)  returns 0x00 (0000ms, 5079ms total)
T0C24 005:827 JLINK_WriteReg(R1, 0x00000400)  returns 0x00 (0000ms, 5079ms total)
T0C24 005:827 JLINK_WriteReg(R2, 0x20000164)  returns 0x00 (0001ms, 5079ms total)
T0C24 005:828 JLINK_WriteReg(R3, 0x00000000)  returns 0x00 (0000ms, 5080ms total)
T0C24 005:828 JLINK_WriteReg(R4, 0x00000000)  returns 0x00 (0000ms, 5080ms total)
T0C24 005:828 JLINK_WriteReg(R5, 0x00000000)  returns 0x00 (0000ms, 5080ms total)
T0C24 005:828 JLINK_WriteReg(R6, 0x00000000)  returns 0x00 (0000ms, 5080ms total)
T0C24 005:828 JLINK_WriteReg(R7, 0x00000000)  returns 0x00 (0000ms, 5080ms total)
T0C24 005:828 JLINK_WriteReg(R8, 0x00000000)  returns 0x00 (0000ms, 5080ms total)
T0C24 005:828 JLINK_WriteReg(R9, 0x20000160)  returns 0x00 (0000ms, 5080ms total)
T0C24 005:828 JLINK_WriteReg(R10, 0x00000000)  returns 0x00 (0000ms, 5080ms total)
T0C24 005:828 JLINK_WriteReg(R11, 0x00000000)  returns 0x00 (0000ms, 5080ms total)
T0C24 005:828 JLINK_WriteReg(R12, 0x00000000)  returns 0x00 (0000ms, 5080ms total)
T0C24 005:828 JLINK_WriteReg(R13, 0x20000800)  returns 0x00 (0000ms, 5080ms total)
T0C24 005:828 JLINK_WriteReg(R14, 0x20000001)  returns 0x00 (0000ms, 5080ms total)
T0C24 005:828 JLINK_WriteReg(R15, 0x200000F4)  returns 0x00 (0000ms, 5080ms total)
T0C24 005:828 JLINK_WriteReg(XPSR, 0x01000000)  returns 0x00 (0000ms, 5080ms total)
T0C24 005:828 JLINK_WriteReg(MSP, 0x20000800)  returns 0x00 (0000ms, 5080ms total)
T0C24 005:828 JLINK_WriteReg(PSP, 0x20000800)  returns 0x00 (0000ms, 5080ms total)
T0C24 005:828 JLINK_WriteReg(CFBP, 0x00000000)  returns 0x00 (0000ms, 5080ms total)
T0C24 005:828 JLINK_SetBPEx(Addr = 0x20000000, Type = 0xFFFFFFF2)  returns 0x0000000D (0000ms, 5080ms total)
T0C24 005:828 JLINK_Go() >0x1F0 JTAG> >0x1F0 JTAG> >0x1F0 JTAG> >0x1F0 JTAG> >0x1F0 JTAG> >0x1F0 JTAG> >0x310 JTAG> >0x218 JTAG> >0x218 JTAG> >0x218 JTAG> >0x218 JTAG> >0x218 JTAG> >0x240 JTAG> >0x240 JTAG> (0031ms, 5080ms total)
T0C24 005:859 JLINK_IsHalted() >0x198 JTAG>  returns FALSE (0002ms, 5111ms total)
T0C24 005:911 JLINK_IsHalted() >0x198 JTAG> >0x17A8 JTAG> >0x1F0 JTAG>  returns TRUE (0011ms, 5111ms total)
T0C24 005:922 JLINK_ReadReg(R15)  returns 0x20000000 (0000ms, 5111ms total)
T0C24 005:922 JLINK_ClrBPEx(BPHandle = 0x0000000D)  returns 0x00 (0000ms, 5111ms total)
T0C24 005:922 JLINK_ReadReg(R0)  returns 0x00000000 (0000ms, 5111ms total)
T0C24 005:923 JLINK_WriteMem(0x20000164, 0x0400 Bytes, ...) -- Data:  10 F0 80 7F 1C BF 0E 20 70 BD 10 F4 00 0F 1C BF ... >0x31C0 JTAG>  returns 0x400 (0012ms, 5111ms total)
T0C24 005:935 JLINK_WriteReg(R0, 0x08002400)  returns 0x00 (0000ms, 5123ms total)
T0C24 005:935 JLINK_WriteReg(R1, 0x00000400)  returns 0x00 (0000ms, 5123ms total)
T0C24 005:935 JLINK_WriteReg(R2, 0x20000164)  returns 0x00 (0000ms, 5123ms total)
T0C24 005:935 JLINK_WriteReg(R3, 0x00000000)  returns 0x00 (0000ms, 5123ms total)
T0C24 005:935 JLINK_WriteReg(R4, 0x00000000)  returns 0x00 (0000ms, 5123ms total)
T0C24 005:935 JLINK_WriteReg(R5, 0x00000000)  returns 0x00 (0000ms, 5123ms total)
T0C24 005:935 JLINK_WriteReg(R6, 0x00000000)  returns 0x00 (0000ms, 5123ms total)
T0C24 005:935 JLINK_WriteReg(R7, 0x00000000)  returns 0x00 (0000ms, 5123ms total)
T0C24 005:935 JLINK_WriteReg(R8, 0x00000000)  returns 0x00 (0001ms, 5123ms total)
T0C24 005:936 JLINK_WriteReg(R9, 0x20000160)  returns 0x00 (0000ms, 5124ms total)
T0C24 005:936 JLINK_WriteReg(R10, 0x00000000)  returns 0x00 (0000ms, 5124ms total)
T0C24 005:936 JLINK_WriteReg(R11, 0x00000000)  returns 0x00 (0000ms, 5124ms total)
T0C24 005:936 JLINK_WriteReg(R12, 0x00000000)  returns 0x00 (0000ms, 5124ms total)
T0C24 005:936 JLINK_WriteReg(R13, 0x20000800)  returns 0x00 (0000ms, 5124ms total)
T0C24 005:936 JLINK_WriteReg(R14, 0x20000001)  returns 0x00 (0000ms, 5124ms total)
T0C24 005:936 JLINK_WriteReg(R15, 0x200000F4)  returns 0x00 (0000ms, 5124ms total)
T0C24 005:936 JLINK_WriteReg(XPSR, 0x01000000)  returns 0x00 (0000ms, 5124ms total)
T0C24 005:936 JLINK_WriteReg(MSP, 0x20000800)  returns 0x00 (0000ms, 5124ms total)
T0C24 005:936 JLINK_WriteReg(PSP, 0x20000800)  returns 0x00 (0000ms, 5124ms total)
T0C24 005:936 JLINK_WriteReg(CFBP, 0x00000000)  returns 0x00 (0000ms, 5124ms total)
T0C24 005:936 JLINK_SetBPEx(Addr = 0x20000000, Type = 0xFFFFFFF2)  returns 0x0000000E (0000ms, 5124ms total)
T0C24 005:936 JLINK_Go() >0x1F0 JTAG> >0x1F0 JTAG> >0x1F0 JTAG> >0x1F0 JTAG> >0x1F0 JTAG> >0x1F0 JTAG> >0x310 JTAG> >0x218 JTAG> >0x218 JTAG> >0x218 JTAG> >0x218 JTAG> >0x218 JTAG> >0x240 JTAG> >0x240 JTAG> (0033ms, 5124ms total)
T0C24 005:969 JLINK_IsHalted() >0x198 JTAG>  returns FALSE (0002ms, 5157ms total)
T0C24 006:021 JLINK_IsHalted() >0x198 JTAG> >0x17A8 JTAG> >0x1F0 JTAG>  returns TRUE (0011ms, 5157ms total)
T0C24 006:032 JLINK_ReadReg(R15)  returns 0x20000000 (0000ms, 5157ms total)
T0C24 006:032 JLINK_ClrBPEx(BPHandle = 0x0000000E)  returns 0x00 (0001ms, 5157ms total)
T0C24 006:033 JLINK_ReadReg(R0)  returns 0x00000000 (0000ms, 5158ms total)
T0C24 006:033 JLINK_WriteMem(0x20000164, 0x0400 Bytes, ...) -- Data:  FD F7 B6 FC 42 F2 32 21 40 F2 09 30 FD F7 B0 FC ... >0x31C0 JTAG>  returns 0x400 (0012ms, 5158ms total)
T0C24 006:045 JLINK_WriteReg(R0, 0x08002800)  returns 0x00 (0001ms, 5170ms total)
T0C24 006:046 JLINK_WriteReg(R1, 0x00000400)  returns 0x00 (0000ms, 5171ms total)
T0C24 006:046 JLINK_WriteReg(R2, 0x20000164)  returns 0x00 (0000ms, 5171ms total)
T0C24 006:046 JLINK_WriteReg(R3, 0x00000000)  returns 0x00 (0000ms, 5171ms total)
T0C24 006:046 JLINK_WriteReg(R4, 0x00000000)  returns 0x00 (0000ms, 5171ms total)
T0C24 006:046 JLINK_WriteReg(R5, 0x00000000)  returns 0x00 (0001ms, 5171ms total)
T0C24 006:047 JLINK_WriteReg(R6, 0x00000000)  returns 0x00 (0000ms, 5172ms total)
T0C24 006:047 JLINK_WriteReg(R7, 0x00000000)  returns 0x00 (0000ms, 5172ms total)
T0C24 006:047 JLINK_WriteReg(R8, 0x00000000)  returns 0x00 (0000ms, 5172ms total)
T0C24 006:047 JLINK_WriteReg(R9, 0x20000160)  returns 0x00 (0000ms, 5172ms total)
T0C24 006:047 JLINK_WriteReg(R10, 0x00000000)  returns 0x00 (0000ms, 5172ms total)
T0C24 006:047 JLINK_WriteReg(R11, 0x00000000)  returns 0x00 (0000ms, 5172ms total)
T0C24 006:047 JLINK_WriteReg(R12, 0x00000000)  returns 0x00 (0000ms, 5172ms total)
T0C24 006:047 JLINK_WriteReg(R13, 0x20000800)  returns 0x00 (0000ms, 5172ms total)
T0C24 006:047 JLINK_WriteReg(R14, 0x20000001)  returns 0x00 (0000ms, 5172ms total)
T0C24 006:047 JLINK_WriteReg(R15, 0x200000F4)  returns 0x00 (0000ms, 5172ms total)
T0C24 006:047 JLINK_WriteReg(XPSR, 0x01000000)  returns 0x00 (0000ms, 5172ms total)
T0C24 006:047 JLINK_WriteReg(MSP, 0x20000800)  returns 0x00 (0000ms, 5172ms total)
T0C24 006:047 JLINK_WriteReg(PSP, 0x20000800)  returns 0x00 (0000ms, 5172ms total)
T0C24 006:047 JLINK_WriteReg(CFBP, 0x00000000)  returns 0x00 (0000ms, 5172ms total)
T0C24 006:047 JLINK_SetBPEx(Addr = 0x20000000, Type = 0xFFFFFFF2)  returns 0x0000000F (0000ms, 5172ms total)
T0C24 006:047 JLINK_Go() >0x1F0 JTAG> >0x1F0 JTAG> >0x1F0 JTAG> >0x1F0 JTAG> >0x1F0 JTAG> >0x1F0 JTAG> >0x310 JTAG> >0x218 JTAG> >0x218 JTAG> >0x218 JTAG> >0x218 JTAG> >0x218 JTAG> >0x240 JTAG> >0x240 JTAG> (0033ms, 5172ms total)
T0C24 006:081 JLINK_IsHalted() >0x198 JTAG>  returns FALSE (0002ms, 5206ms total)
T0C24 006:133 JLINK_IsHalted() >0x198 JTAG> >0x17A8 JTAG> >0x1F0 JTAG>  returns TRUE (0011ms, 5206ms total)
T0C24 006:144 JLINK_ReadReg(R15)  returns 0x20000000 (0000ms, 5206ms total)
T0C24 006:144 JLINK_ClrBPEx(BPHandle = 0x0000000F)  returns 0x00 (0000ms, 5206ms total)
T0C24 006:144 JLINK_ReadReg(R0)  returns 0x00000000 (0000ms, 5206ms total)
T0C24 006:145 JLINK_WriteMem(0x20000164, 0x0400 Bytes, ...) -- Data:  6D 1C 0B F1 01 0B BB F1 08 0F FF F4 5B AF 00 98 ... >0x31C0 JTAG>  returns 0x400 (0012ms, 5206ms total)
T0C24 006:157 JLINK_WriteReg(R0, 0x08002C00)  returns 0x00 (0000ms, 5218ms total)
T0C24 006:157 JLINK_WriteReg(R1, 0x00000400)  returns 0x00 (0000ms, 5218ms total)
T0C24 006:157 JLINK_WriteReg(R2, 0x20000164)  returns 0x00 (0000ms, 5218ms total)
T0C24 006:157 JLINK_WriteReg(R3, 0x00000000)  returns 0x00 (0001ms, 5218ms total)
T0C24 006:158 JLINK_WriteReg(R4, 0x00000000)  returns 0x00 (0000ms, 5219ms total)
T0C24 006:158 JLINK_WriteReg(R5, 0x00000000)  returns 0x00 (0000ms, 5219ms total)
T0C24 006:158 JLINK_WriteReg(R6, 0x00000000)  returns 0x00 (0000ms, 5219ms total)
T0C24 006:158 JLINK_WriteReg(R7, 0x00000000)  returns 0x00 (0000ms, 5219ms total)
T0C24 006:158 JLINK_WriteReg(R8, 0x00000000)  returns 0x00 (0000ms, 5219ms total)
T0C24 006:158 JLINK_WriteReg(R9, 0x20000160)  returns 0x00 (0000ms, 5219ms total)
T0C24 006:158 JLINK_WriteReg(R10, 0x00000000)  returns 0x00 (0000ms, 5219ms total)
T0C24 006:158 JLINK_WriteReg(R11, 0x00000000)  returns 0x00 (0000ms, 5219ms total)
T0C24 006:158 JLINK_WriteReg(R12, 0x00000000)  returns 0x00 (0000ms, 5219ms total)
T0C24 006:158 JLINK_WriteReg(R13, 0x20000800)  returns 0x00 (0000ms, 5219ms total)
T0C24 006:158 JLINK_WriteReg(R14, 0x20000001)  returns 0x00 (0000ms, 5219ms total)
T0C24 006:158 JLINK_WriteReg(R15, 0x200000F4)  returns 0x00 (0000ms, 5219ms total)
T0C24 006:158 JLINK_WriteReg(XPSR, 0x01000000)  returns 0x00 (0000ms, 5219ms total)
T0C24 006:158 JLINK_WriteReg(MSP, 0x20000800)  returns 0x00 (0000ms, 5219ms total)
T0C24 006:158 JLINK_WriteReg(PSP, 0x20000800)  returns 0x00 (0000ms, 5219ms total)
T0C24 006:158 JLINK_WriteReg(CFBP, 0x00000000)  returns 0x00 (0000ms, 5219ms total)
